Freq.	V(n003)
1.00000000000000e+000	(-1.86713084074248e-011dB,-1.18799999999833e-004°)
1.00069338746258e+000	(-1.86973452490218e-011dB,-1.18882374430384e-004°)
1.00138725571133e+000	(-1.87243464180854e-011dB,-1.18964805978336e-004°)
1.00208160507963e+000	(-1.87503832596824e-011dB,-1.19047294683286e-004°)
1.00277643590108e+000	(-1.87764201012793e-011dB,-1.19129840584876e-004°)
1.00347174850950e+000	(-1.88005282879432e-011dB,-1.19212443722757e-004°)
1.00416754323897e+000	(-1.88284937844733e-011dB,-1.19295104136618e-004°)
1.00486382042379e+000	(-1.88535662986038e-011dB,-1.19377821866170e-004°)
1.00556058039847e+000	(-1.88786388127342e-011dB,-1.19460596951162e-004°)
1.00625782349778e+000	(-1.89066043092643e-011dB,-1.19543429431363e-004°)
1.00695555005672e+000	(-1.89316768233948e-011dB,-1.19626319346565e-004°)
1.00765376041051e+000	(-1.89596423199249e-011dB,-1.19709266736597e-004°)
1.00835245489460e+000	(-1.89856791615219e-011dB,-1.19792271641300e-004°)
1.00905163384468e+000	(-1.90097873481858e-011dB,-1.19875334100573e-004°)
1.00975129759669e+000	(-1.90367885172493e-011dB,-1.19958454154311e-004°)
1.01045144648677e+000	(-1.90647540137794e-011dB,-1.20041631842449e-004°)
1.01115208085131e+000	(-1.90907908553764e-011dB,-1.20124867204959e-004°)
1.01185320102693e+000	(-1.91168276969734e-011dB,-1.20208160281823e-004°)
1.01255480735050e+000	(-1.91447931935035e-011dB,-1.20291511113062e-004°)
1.01325690015909e+000	(-1.91689013801674e-011dB,-1.20374919738723e-004°)
1.01395947979003e+000	(-1.91959025492309e-011dB,-1.20458386198878e-004°)
1.01466254658088e+000	(-1.92229037182945e-011dB,-1.20541910533631e-004°)
1.01536610086943e+000	(-1.92489405598915e-011dB,-1.20625492783107e-004°)
1.01607014299370e+000	(-1.92778703838882e-011dB,-1.20709132987473e-004°)
1.01677467329196e+000	(-1.93029428980186e-011dB,-1.20792831186906e-004°)
1.01747969210269e+000	(-1.93318727220153e-011dB,-1.20876587421620e-004°)
1.01818519976462e+000	(-1.93569452361457e-011dB,-1.20960401731858e-004°)
1.01889119661673e+000	(-1.93829820777427e-011dB,-1.21044274157890e-004°)
1.01959768299819e+000	(-1.94109475742728e-011dB,-1.21128204740005e-004°)
1.02030465924846e+000	(-1.94398773982695e-011dB,-1.21212193518536e-004°)
1.02101212570720e+000	(-1.94649499123999e-011dB,-1.21296240533831e-004°)
1.02172008271430e+000	(-1.94919510814635e-011dB,-1.21380345826278e-004°)
1.02242853060993e+000	(-1.95170235955939e-011dB,-1.21464509436274e-004°)
1.02313746973444e+000	(-1.95449890921240e-011dB,-1.21548731404269e-004°)
1.02384690042845e+000	(-1.95719902611876e-011dB,-1.21633011770720e-004°)
1.02455682303281e+000	(-1.95999557577177e-011dB,-1.21717350576117e-004°)
1.02526723788860e+000	(-1.96288855817143e-011dB,-1.21801747860985e-004°)
1.02597814533714e+000	(-1.96549224233113e-011dB,-1.21886203665869e-004°)
1.02668954572000e+000	(-1.96809592649083e-011dB,-1.21970718031352e-004°)
1.02740143937897e+000	(-1.97069961065053e-011dB,-1.22055290998037e-004°)
1.02811382665607e+000	(-1.97349616030354e-011dB,-1.22139922606553e-004°)
1.02882670789358e+000	(-1.97638914270321e-011dB,-1.22224612897572e-004°)
1.02954008343400e+000	(-1.97908925960957e-011dB,-1.22309361911774e-004°)
1.03025395362008e+000	(-1.98188580926258e-011dB,-1.22394169689879e-004°)
1.03096831879479e+000	(-1.98468235891559e-011dB,-1.22479036272632e-004°)
1.03168317930136e+000	(-1.98728604307529e-011dB,-1.22563961700818e-004°)
1.03239853548325e+000	(-1.99017902547495e-011dB,-1.22648946015222e-004°)
1.03311438768414e+000	(-1.99278270963465e-011dB,-1.22733989256688e-004°)
1.03383073624797e+000	(-1.99548282654101e-011dB,-1.22819091466071e-004°)
1.03454758151891e+000	(-1.99827937619402e-011dB,-1.22904252684255e-004°)
1.03526492384138e+000	(-2.00117235859369e-011dB,-1.22989472952167e-004°)
1.03598276356002e+000	(-2.00416177374001e-011dB,-1.23074752310742e-004°)
1.03670110101973e+000	(-2.00657259240640e-011dB,-1.23160090800954e-004°)
1.03741993656562e+000	(-2.00946557480606e-011dB,-1.23245488463805e-004°)
1.03813927054306e+000	(-2.01216569171242e-011dB,-1.23330945340325e-004°)
1.03885910329767e+000	(-2.01515510685874e-011dB,-1.23416461471572e-004°)
1.03957943517528e+000	(-2.01785522376510e-011dB,-1.23502036898633e-004°)
1.04030026652199e+000	(-2.02065177341811e-011dB,-1.23587671662621e-004°)
1.04102159768412e+000	(-2.02344832307112e-011dB,-1.23673365804678e-004°)
1.04174342900823e+000	(-2.02634130547079e-011dB,-1.23759119365985e-004°)
1.04246576084113e+000	(-2.02913785512380e-011dB,-1.23844932387736e-004°)
1.04318859352986e+000	(-2.03193440477681e-011dB,-1.23930804911155e-004°)
1.04391192742173e+000	(-2.03482738717647e-011dB,-1.24016736977507e-004°)
1.04463576286424e+000	(-2.03752750408283e-011dB,-1.24102728628074e-004°)
1.04536010020517e+000	(-2.04042048648250e-011dB,-1.24188779904180e-004°)
1.04608493979254e+000	(-2.04331346888216e-011dB,-1.24274890847158e-004°)
1.04681028197458e+000	(-2.04591715304186e-011dB,-1.24361061498385e-004°)
1.04753612709981e+000	(-2.04890656818819e-011dB,-1.24447291899264e-004°)
1.04826247551694e+000	(-2.05170311784120e-011dB,-1.24533582091216e-004°)
1.04898932757495e+000	(-2.05459610024086e-011dB,-1.24619932115708e-004°)
1.04971668362308e+000	(-2.05729621714722e-011dB,-1.24706342014224e-004°)
1.05044454401076e+000	(-2.06018919954689e-011dB,-1.24792811828281e-004°)
1.05117290908771e+000	(-2.06308218194655e-011dB,-1.24879341599426e-004°)
1.05190177920388e+000	(-2.06587873159956e-011dB,-1.24965931369223e-004°)
1.05263115470945e+000	(-2.06896457949254e-011dB,-1.25052581179284e-004°)
1.05336103595484e+000	(-2.07185756189221e-011dB,-1.25139291071237e-004°)
1.05409142329075e+000	(-2.07446124605191e-011dB,-1.25226061086741e-004°)
1.05482231706807e+000	(-2.07754709394489e-011dB,-1.25312891267487e-004°)
1.05555371763798e+000	(-2.08034364359790e-011dB,-1.25399781655191e-004°)
1.05628562535187e+000	(-2.08314019325091e-011dB,-1.25486732291601e-004°)
1.05701804056139e+000	(-2.08612960839723e-011dB,-1.25573743218495e-004°)
1.05775096361844e+000	(-2.08911902354355e-011dB,-1.25660814477669e-004°)
1.05848439487514e+000	(-2.09201200594322e-011dB,-1.25747946110965e-004°)
1.05921833468389e+000	(-2.09471212284958e-011dB,-1.25835138160243e-004°)
1.05995278339729e+000	(-2.09760510524924e-011dB,-1.25922390667396e-004°)
1.06068774136823e+000	(-2.10059452039557e-011dB,-1.26009703674342e-004°)
1.06142320894980e+000	(-2.10377680103520e-011dB,-1.26097077223033e-004°)
1.06215918649538e+000	(-2.10657335068821e-011dB,-1.26184511355447e-004°)
1.06289567435856e+000	(-2.10936990034122e-011dB,-1.26272006113596e-004°)
1.06363267289320e+000	(-2.11216644999423e-011dB,-1.26359561539507e-004°)
1.06437018245337e+000	(-2.11525229788721e-011dB,-1.26447177675255e-004°)
1.06510820339343e+000	(-2.11804884754022e-011dB,-1.26534854562934e-004°)
1.06584673606795e+000	(-2.12123112817986e-011dB,-1.26622592244667e-004°)
1.06658578083178e+000	(-2.12412411057952e-011dB,-1.26710390762608e-004°)
1.06732533803997e+000	(-2.12701709297919e-011dB,-1.26798250158938e-004°)
1.06806540804786e+000	(-2.13000650812551e-011dB,-1.26886170475876e-004°)
1.06880599121102e+000	(-2.13289949052518e-011dB,-1.26974151755661e-004°)
1.06954708788526e+000	(-2.13588890567150e-011dB,-1.27062194040557e-004°)
1.07028869842664e+000	(-2.13887832081782e-011dB,-1.27150297372876e-004°)
1.07103082319147e+000	(-2.14177130321749e-011dB,-1.27238461794934e-004°)
1.07177346253630e+000	(-2.14485715111047e-011dB,-1.27326687349100e-004°)
1.07251661681795e+000	(-2.14775013351014e-011dB,-1.27414974077763e-004°)
1.07326028639347e+000	(-2.15083598140311e-011dB,-1.27503322023333e-004°)
1.07400447162014e+000	(-2.15392182929609e-011dB,-1.27591731228261e-004°)
1.07474917285551e+000	(-2.15681481169576e-011dB,-1.27680201735024e-004°)
1.07549439045739e+000	(-2.15990065958874e-011dB,-1.27768733586126e-004°)
1.07624012478381e+000	(-2.16279364198841e-011dB,-1.27857326824104e-004°)
1.07698637619306e+000	(-2.16568662438807e-011dB,-1.27945981491523e-004°)
1.07773314504368e+000	(-2.16857960678774e-011dB,-1.28034697630976e-004°)
1.07848043169446e+000	(-2.17176188742737e-011dB,-1.28123475285092e-004°)
1.07922823650444e+000	(-2.17455843708038e-011dB,-1.28212314496517e-004°)
1.07997655983290e+000	(-2.17783715046667e-011dB,-1.28301215307933e-004°)
1.08072540203936e+000	(-2.18082656561300e-011dB,-1.28390177762062e-004°)
1.08147476348363e+000	(-2.18381598075932e-011dB,-1.28479201901640e-004°)
1.08222464452573e+000	(-2.18690182865230e-011dB,-1.28568287769441e-004°)
1.08297504552594e+000	(-2.18989124379862e-011dB,-1.28657435408265e-004°)
1.08372596684479e+000	(-2.19288065894494e-011dB,-1.28746644860945e-004°)
1.08447740884308e+000	(-2.19577364134461e-011dB,-1.28835916170340e-004°)
1.08522937188182e+000	(-2.19866662374428e-011dB,-1.28925249379343e-004°)
1.08598185632231e+000	(-2.20204176987722e-011dB,-1.29014644530872e-004°)
1.08673486252607e+000	(-2.20512761777020e-011dB,-1.29104101667876e-004°)
1.08748839085490e+000	(-2.20782773467656e-011dB,-1.29193620833343e-004°)
1.08824244167082e+000	(-2.21120288080950e-011dB,-1.29283202070271e-004°)
1.08899701533612e+000	(-2.21419229595582e-011dB,-1.29372845421714e-004°)
1.08975211221334e+000	(-2.21737457659546e-011dB,-1.29462550930725e-004°)
1.09050773266527e+000	(-2.22046042448844e-011dB,-1.29552318640413e-004°)
1.09126387705495e+000	(-2.22344983963476e-011dB,-1.29642148593910e-004°)
1.09202054574567e+000	(-2.22643925478108e-011dB,-1.29732040834367e-004°)
1.09277773910097e+000	(-2.22971796816737e-011dB,-1.29821995404973e-004°)
1.09353545748465e+000	(-2.23280381606035e-011dB,-1.29912012348950e-004°)
1.09429370126075e+000	(-2.23579323120667e-011dB,-1.30002091709555e-004°)
1.09505247079359e+000	(-2.23887907909965e-011dB,-1.30092233530055e-004°)
1.09581176644771e+000	(-2.24206135973929e-011dB,-1.30182437853760e-004°)
1.09657158858791e+000	(-2.24485790939230e-011dB,-1.30272704724022e-004°)
1.09733193757926e+000	(-2.24842592101855e-011dB,-1.30363034184191e-004°)
1.09809281378706e+000	(-2.25141533616488e-011dB,-1.30453426277675e-004°)
1.09885421757689e+000	(-2.25459761680451e-011dB,-1.30543881047909e-004°)
1.09961614931457e+000	(-2.25768346469749e-011dB,-1.30634398538344e-004°)
1.10037860936615e+000	(-2.26086574533712e-011dB,-1.30724978792472e-004°)
1.10114159809798e+000	(-2.26404802597676e-011dB,-1.30815621853813e-004°)
1.10190511587663e+000	(-2.26684457562977e-011dB,-1.30906327765916e-004°)
1.10266916306893e+000	(-2.27031615450937e-011dB,-1.30997096572361e-004°)
1.10343374004198e+000	(-2.27340200240235e-011dB,-1.31087928316758e-004°)
1.10419884716311e+000	(-2.27648785029533e-011dB,-1.31178823042748e-004°)
1.10496448479993e+000	(-2.27967013093496e-011dB,-1.31269780794002e-004°)
1.10573065332029e+000	(-2.28265954608129e-011dB,-1.31360801614223e-004°)
1.10649735309229e+000	(-2.28613112496089e-011dB,-1.31451885547133e-004°)
1.10726458448430e+000	(-2.28912054010721e-011dB,-1.31543032636501e-004°)
1.10803234786494e+000	(-2.29249568624015e-011dB,-1.31634242926124e-004°)
1.10880064360309e+000	(-2.29548510138648e-011dB,-1.31725516459811e-004°)
1.10956947206786e+000	(-2.29866738202611e-011dB,-1.31816853281433e-004°)
1.11033883362866e+000	(-2.30194609541240e-011dB,-1.31908253434851e-004°)
1.11110872865511e+000	(-2.30512837605204e-011dB,-1.31999716963997e-004°)
1.11187915751712e+000	(-2.30821422394502e-011dB,-1.32091243912797e-004°)
1.11265012058485e+000	(-2.31130007183799e-011dB,-1.32182834325246e-004°)
1.11342161822870e+000	(-2.31457878522428e-011dB,-1.32274488245335e-004°)
1.11419365081935e+000	(-2.31805036410388e-011dB,-1.32366205717103e-004°)
1.11496621872772e+000	(-2.32113621199686e-011dB,-1.32457986784617e-004°)
1.11573932232498e+000	(-2.32412562714319e-011dB,-1.32549831491971e-004°)
1.11651296198259e+000	(-2.32769363876944e-011dB,-1.32641739883292e-004°)
1.11728713807224e+000	(-2.33068305391577e-011dB,-1.32733712002745e-004°)
1.11806185096588e+000	(-2.33405820004871e-011dB,-1.32825747894506e-004°)
1.11883710103573e+000	(-2.33733691343500e-011dB,-1.32917847602806e-004°)
1.11961288865426e+000	(-2.34061562682129e-011dB,-1.33010011171890e-004°)
1.12038921419420e+000	(-2.34379790746093e-011dB,-1.33102238646031e-004°)
1.12116607802853e+000	(-2.34698018810056e-011dB,-1.33194530069546e-004°)
1.12194348053050e+000	(-2.35035533423351e-011dB,-1.33286885486783e-004°)
1.12272142207363e+000	(-2.35363404761980e-011dB,-1.33379304942103e-004°)
1.12349990303166e+000	(-2.35691276100609e-011dB,-1.33471788479920e-004°)
1.12427892377864e+000	(-2.36009504164572e-011dB,-1.33564336144660e-004°)
1.12505848468883e+000	(-2.36337375503201e-011dB,-1.33656947980791e-004°)
1.12583858613678e+000	(-2.36684533391161e-011dB,-1.33749624032804e-004°)
1.12661922849730e+000	(-2.36973831631128e-011dB,-1.33842364345236e-004°)
1.12740041214544e+000	(-2.37311346244423e-011dB,-1.33935168962635e-004°)
1.12818213745653e+000	(-2.37658504132383e-011dB,-1.34028037929592e-004°)
1.12896440480615e+000	(-2.37976732196346e-011dB,-1.34120971290726e-004°)
1.12974721457014e+000	(-2.38294960260310e-011dB,-1.34213969090691e-004°)
1.13053056712461e+000	(-2.38632474873604e-011dB,-1.34307031374161e-004°)
1.13131446284592e+000	(-2.38979632761564e-011dB,-1.34400158185849e-004°)
1.13209890211069e+000	(-2.39288217550862e-011dB,-1.34493349570500e-004°)
1.13288388529582e+000	(-2.39625732164157e-011dB,-1.34586605572896e-004°)
1.13366941277844e+000	(-2.39972890052117e-011dB,-1.34679926237828e-004°)
1.13445548493598e+000	(-2.40310404665412e-011dB,-1.34773311610148e-004°)
1.13524210214609e+000	(-2.40638276004041e-011dB,-1.34866761734706e-004°)
1.13602926478671e+000	(-2.40985433892001e-011dB,-1.34960276656411e-004°)
1.13681697323604e+000	(-2.41313305230630e-011dB,-1.35053856420191e-004°)
1.13760522787253e+000	(-2.41641176569259e-011dB,-1.35147501071006e-004°)
1.13839402907490e+000	(-2.41978691182553e-011dB,-1.35241210653847e-004°)
1.13918337722214e+000	(-2.42296919246517e-011dB,-1.35334985213735e-004°)
1.13997327269348e+000	(-2.42644077134477e-011dB,-1.35428824795734e-004°)
1.14076371586845e+000	(-2.42981591747772e-011dB,-1.35522729444919e-004°)
1.14155470712680e+000	(-2.43309463086401e-011dB,-1.35616699206410e-004°)
1.14234624684857e+000	(-2.43656620974361e-011dB,-1.35710734125359e-004°)
1.14313833541406e+000	(-2.44003778862321e-011dB,-1.35804834246936e-004°)
1.14393097320383e+000	(-2.44341293475616e-011dB,-1.35898999616360e-004°)
1.14472416059871e+000	(-2.44688451363576e-011dB,-1.35993230278871e-004°)
1.14551789797978e+000	(-2.45016322702205e-011dB,-1.36087526279742e-004°)
1.14631218572840e+000	(-2.45344194040834e-011dB,-1.36181887664278e-004°)
1.14710702422619e+000	(-2.45691351928794e-011dB,-1.36276314477814e-004°)
1.14790241385503e+000	(-2.46028866542089e-011dB,-1.36370806765720e-004°)
1.14869835499706e+000	(-2.46366381155383e-011dB,-1.36465364573396e-004°)
1.14949484803470e+000	(-2.46723182318009e-011dB,-1.36559987946261e-004°)
1.15029189335063e+000	(-2.47070340205969e-011dB,-1.36654676929796e-004°)
1.15108949132779e+000	(-2.47398211544598e-011dB,-1.36749431569478e-004°)
1.15188764234938e+000	(-2.47735726157893e-011dB,-1.36844251910850e-004°)
1.15268634679889e+000	(-2.48082884045853e-011dB,-1.36939137999447e-004°)
1.15348560506005e+000	(-2.48439685208479e-011dB,-1.37034089880872e-004°)
1.15428541751686e+000	(-2.48786843096439e-011dB,-1.37129107600739e-004°)
1.15508578455361e+000	(-2.49114714435068e-011dB,-1.37224191204706e-004°)
1.15588670655482e+000	(-2.49452229048363e-011dB,-1.37319340738450e-004°)
1.15668818390531e+000	(-2.49789743661657e-011dB,-1.37414556247685e-004°)
1.15749021699015e+000	(-2.50165831373614e-011dB,-1.37509837778169e-004°)
1.15829280619467e+000	(-2.50493702712243e-011dB,-1.37605185375662e-004°)
1.15909595190448e+000	(-2.50869790424200e-011dB,-1.37700599085987e-004°)
1.15989965450546e+000	(-2.51188018488163e-011dB,-1.37796078954983e-004°)
1.16070391438375e+000	(-2.51544819650789e-011dB,-1.37891625028523e-004°)
1.16150873192575e+000	(-2.51911264088080e-011dB,-1.37987237352512e-004°)
1.16231410751814e+000	(-2.52248778701375e-011dB,-1.38082915972885e-004°)
1.16312004154788e+000	(-2.52595936589335e-011dB,-1.38178660935620e-004°)
1.16392653440216e+000	(-2.52952737751961e-011dB,-1.38274472286709e-004°)
1.16473358646848e+000	(-2.53299895639921e-011dB,-1.38370350072187e-004°)
1.16554119813459e+000	(-2.53637410253216e-011dB,-1.38466294338119e-004°)
1.16634936978850e+000	(-2.53984568141176e-011dB,-1.38562305130603e-004°)
1.16715810181850e+000	(-2.54351012578467e-011dB,-1.38658382495767e-004°)
1.16796739461315e+000	(-2.54688527191762e-011dB,-1.38754526479770e-004°)
1.16877724856127e+000	(-2.55045328354388e-011dB,-1.38850737128808e-004°)
1.16958766405198e+000	(-2.55431059341010e-011dB,-1.38947014489105e-004°)
1.17039864147462e+000	(-2.55768573954305e-011dB,-1.39043358606915e-004°)
1.17121018121884e+000	(-2.56125375116931e-011dB,-1.39139769528521e-004°)
1.17202228367454e+000	(-2.56472533004891e-011dB,-1.39236247300262e-004°)
1.17283494923191e+000	(-2.56819690892851e-011dB,-1.39332791968476e-004°)
1.17364817828138e+000	(-2.57186135330142e-011dB,-1.39429403579556e-004°)
1.17446197121368e+000	(-2.57542936492768e-011dB,-1.39526082179907e-004°)
1.17527632841980e+000	(-2.57899737655394e-011dB,-1.39622827815996e-004°)
1.17609125029099e+000	(-2.58275825367351e-011dB,-1.39719640534293e-004°)
1.17690673721880e+000	(-2.58613339980646e-011dB,-1.39816520381316e-004°)
1.17772278959501e+000	(-2.58989427692602e-011dB,-1.39913467403609e-004°)
1.17853940781171e+000	(-2.59346228855228e-011dB,-1.40010481647750e-004°)
1.17935659226125e+000	(-2.59693386743188e-011dB,-1.40107563160357e-004°)
1.18017434333623e+000	(-2.60050187905814e-011dB,-1.40204711988068e-004°)
1.18099266142956e+000	(-2.60416632343106e-011dB,-1.40301928177551e-004°)
1.18181154693440e+000	(-2.60773433505731e-011dB,-1.40399211775528e-004°)
1.18263100024417e+000	(-2.61130234668357e-011dB,-1.40496562828726e-004°)
1.18345102175260e+000	(-2.61506322380314e-011dB,-1.40593981383927e-004°)
1.18427161185366e+000	(-2.61853480268274e-011dB,-1.40691467487933e-004°)
1.18509277094161e+000	(-2.62239211254897e-011dB,-1.40789021187583e-004°)
1.18591449941098e+000	(-2.62596012417523e-011dB,-1.40886642529737e-004°)
1.18673679765656e+000	(-2.62962456854814e-011dB,-1.40984331561315e-004°)
1.18755966607344e+000	(-2.63309614742774e-011dB,-1.41082088329240e-004°)
1.18838310505696e+000	(-2.63695345729397e-011dB,-1.41179912880485e-004°)
1.18920711500275e+000	(-2.64052146892022e-011dB,-1.41277805262041e-004°)
1.19003169630671e+000	(-2.64418591329314e-011dB,-1.41375765520947e-004°)
1.19085684936500e+000	(-2.64775392491940e-011dB,-1.41473793704272e-004°)
1.19168257457408e+000	(-2.65151480203897e-011dB,-1.41571889859112e-004°)
1.19250887233066e+000	(-2.65527567915853e-011dB,-1.41670054032597e-004°)
1.19333574303176e+000	(-2.65894012353145e-011dB,-1.41768286271880e-004°)
1.19416318707462e+000	(-2.66250813515771e-011dB,-1.41866586624175e-004°)
1.19499120485682e+000	(-2.66617257953062e-011dB,-1.41964955136699e-004°)
1.19581979677616e+000	(-2.66993345665019e-011dB,-1.42063391856716e-004°)
1.19664896323075e+000	(-2.67369433376976e-011dB,-1.42161896831521e-004°)
1.19747870461896e+000	(-2.67735877814267e-011dB,-1.42260470108437e-004°)
1.19830902133945e+000	(-2.68111965526224e-011dB,-1.42359111734831e-004°)
1.19913991379115e+000	(-2.68478409963516e-011dB,-1.42457821758095e-004°)
1.19997138237325e+000	(-2.68825567851476e-011dB,-1.42556600225648e-004°)
1.20080342748524e+000	(-2.69240228662095e-011dB,-1.42655447184952e-004°)
1.20163604952689e+000	(-2.69606673099386e-011dB,-1.42754362683496e-004°)
1.20246924889821e+000	(-2.69973117536678e-011dB,-1.42853346768815e-004°)
1.20330302599954e+000	(-2.70368491797966e-011dB,-1.42952399488448e-004°)
1.20413738123145e+000	(-2.70725292960592e-011dB,-1.43051520889996e-004°)
1.20497231499482e+000	(-2.71082094123218e-011dB,-1.43150711021087e-004°)
